time	V(vout)	V(n001)	V(n012)	V(n013)
0.000000000000000e+000	3.995959e+000	1.000000e-001	1.000000e-001	3.681750e+000
4.464285766455794e-010	3.995959e+000	9.999107e-002	9.999554e-002	3.681750e+000
8.928571532911587e-010	3.995959e+000	9.998214e-002	9.999107e-002	3.681750e+000
1.339285729936738e-009	3.995959e+000	9.997321e-002	9.998661e-002	3.681750e+000
1.785714306582317e-009	3.995959e+000	9.996428e-002	9.998215e-002	3.681750e+000
2.232142883227897e-009	3.995959e+000	9.995535e-002	9.997768e-002	3.681750e+000
2.678571459873476e-009	3.995959e+000	9.994643e-002	9.997321e-002	3.681750e+000
3.125000036519054e-009	3.995959e+000	9.993750e-002	9.996875e-002	3.681750e+000
6.250000073038109e-009	3.995959e+000	9.987500e-002	9.993750e-002	3.681750e+000
1.250000014607622e-008	3.995959e+000	9.975000e-002	9.987500e-002	3.681754e+000
2.500000029215244e-008	3.995959e+000	9.950000e-002	9.975000e-002	3.681782e+000
5.000000058430487e-008	3.995959e+000	9.900000e-002	9.950000e-002	3.681931e+000
1.000000011686097e-007	3.995959e+000	9.800000e-002	9.900000e-002	3.682501e+000
1.638969181548849e-007	3.995959e+000	9.672206e-002	9.836103e-002	3.683763e+000
2.557169784504620e-007	3.995959e+000	9.488566e-002	9.744283e-002	3.686882e+000
4.074670072294994e-007	3.995959e+000	9.185066e-002	9.592533e-002	3.695060e+000
5.664034981765932e-007	3.995959e+000	8.867193e-002	9.433597e-002	3.708670e+000
8.842764800707808e-007	3.995959e+000	8.231447e-002	9.115724e-002	3.746202e+000
1.000000000000000e-006	3.995959e+000	8.000000e-002	9.000000e-002	3.762700e+000
1.024340859621538e-006	3.995959e+000	7.951318e-002	8.975659e-002	3.766539e+000
1.073022578864614e-006	3.995959e+000	7.853955e-002	8.926977e-002	3.773685e+000
1.170386017350766e-006	3.995959e+000	7.659228e-002	8.829614e-002	3.785112e+000
1.365112894323069e-006	3.995959e+000	7.269774e-002	8.634887e-002	3.798177e+000
1.754566648267676e-006	3.995959e+000	6.490867e-002	8.245433e-002	3.806187e+000
2.000000000000000e-006	3.995959e+000	6.000000e-002	8.000000e-002	3.804695e+000
2.063720640280849e-006	3.995959e+000	5.872559e-002	7.936279e-002	3.803537e+000
2.191161920842548e-006	3.995959e+000	5.617676e-002	7.808838e-002	3.801165e+000
2.446044481965946e-006	3.995959e+000	5.107911e-002	7.553955e-002	3.795884e+000
2.955809604212742e-006	3.995959e+000	4.088381e-002	7.044190e-002	3.783973e+000
3.000000000000000e-006	3.995959e+000	4.000000e-002	7.000000e-002	3.782816e+000
3.088380791574515e-006	3.995959e+000	3.823238e-002	6.911619e-002	3.779976e+000
3.265142374723546e-006	3.995959e+000	3.469715e-002	6.734858e-002	3.772994e+000
3.618665541021608e-006	3.995959e+000	2.762669e-002	6.381334e-002	3.753383e+000
4.000000000000000e-006	3.995959e+000	2.000000e-002	6.000000e-002	3.725949e+000
4.070704633259612e-006	3.995959e+000	1.858591e-002	5.929295e-002	3.718851e+000
4.212113899778837e-006	3.995959e+000	1.575772e-002	5.787886e-002	3.703596e+000
4.494932432817287e-006	3.995959e+000	1.010135e-002	5.505067e-002	3.668454e+000
5.000000000000000e-006	3.995959e+000	0.000000e+000	5.000000e-002	3.598045e+000
5.056563706607690e-006	3.995959e+000	-1.131274e-003	4.943436e-002	3.588771e+000
5.169691119823070e-006	3.995959e+000	-3.393822e-003	4.830309e-002	3.569689e+000
5.395945946253829e-006	3.995959e+000	-7.918919e-003	4.604054e-002	3.529032e+000
5.848455599115349e-006	3.995959e+000	-1.696911e-002	4.151544e-002	3.442226e+000
5.999999999999999e-006	3.995959e+000	-2.000000e-002	4.000000e-002	3.411592e+000
6.090501930572303e-006	3.995959e+000	-2.181004e-002	3.909498e-002	3.391999e+000
6.271505791716911e-006	3.995959e+000	-2.543011e-002	3.728494e-002	3.351778e+000
6.633513514006127e-006	3.995959e+000	-3.267027e-002	3.366486e-002	3.267773e+000
7.000000000000000e-006	3.995959e+000	-4.000000e-002	3.000000e-002	3.179452e+000
7.072401544457843e-006	3.995959e+000	-4.144803e-002	2.927599e-002	3.161019e+000
7.217204633373529e-006	3.995959e+000	-4.434409e-002	2.782795e-002	3.123628e+000
7.506810811204902e-006	3.995959e+000	-5.013622e-002	2.493189e-002	3.046610e+000
8.000000000000000e-006	3.995959e+000	-6.000000e-002	2.000000e-002	2.911931e+000
8.057921235566273e-006	3.995959e+000	-6.115843e-002	1.942079e-002	2.895449e+000
8.173763706698822e-006	3.995959e+000	-6.347527e-002	1.826236e-002	2.862221e+000
8.405448648963920e-006	3.995959e+000	-6.810898e-002	1.594551e-002	2.794540e+000
8.868818533494117e-006	3.995959e+000	-7.737637e-002	1.131182e-002	2.656542e+000
9.000000000000000e-006	3.995959e+000	-8.000000e-002	1.000000e-002	2.616843e+000
9.092673976906039e-006	3.995959e+000	-8.185348e-002	9.073260e-003	2.588183e+000
9.278021930718118e-006	3.995959e+000	-8.556044e-002	7.219781e-003	2.530356e+000
9.648717838342275e-006	3.995959e+000	-9.297436e-002	3.512822e-003	2.412998e+000
9.999999999999999e-006	3.995959e+000	-1.000000e-001	0.000000e+000	2.300324e+000
1.003512821616577e-005	3.995959e+000	-1.000000e-001	-3.512822e-004	2.288882e+000
1.010538464849732e-005	3.995959e+000	-1.000000e-001	-1.053846e-003	2.266032e+000
1.023927206678973e-005	3.995959e+000	-1.000000e-001	-2.392721e-003	2.222673e+000
1.036235111191226e-005	3.995959e+000	-1.000000e-001	-3.623511e-003	2.183142e+000
1.049686313085008e-005	3.995959e+000	-1.000000e-001	-4.968631e-003	2.140559e+000
1.076588716872573e-005	3.995959e+000	-1.000000e-001	-7.658872e-003	2.056892e+000
1.100000000000000e-005	3.995959e+000	-1.000000e-001	-1.000000e-002	1.985170e+000
1.103883209359333e-005	3.995959e+000	-1.000000e-001	-1.038832e-002	1.973533e+000
1.111649628078000e-005	3.995959e+000	-1.000000e-001	-1.116496e-002	1.950379e+000
1.127182465515332e-005	3.995959e+000	-1.000000e-001	-1.271825e-002	1.904641e+000
1.158248140389998e-005	3.995959e+000	-1.000000e-001	-1.582481e-002	1.815047e+000
1.200000000000000e-005	3.995959e+000	-1.000000e-001	-2.000000e-002	1.696912e+000
1.206213134974933e-005	3.995959e+000	-1.000000e-001	-2.062131e-002	1.679881e+000
1.218639404924799e-005	3.995959e+000	-1.000000e-001	-2.186394e-002	1.646074e+000
1.243491944824532e-005	3.995959e+000	-1.000000e-001	-2.434919e-002	1.579689e+000
1.293197024623996e-005	3.995959e+000	-1.000000e-001	-2.931970e-002	1.449403e+000
1.300000000000000e-005	3.995959e+000	-1.000000e-001	-3.000000e-002	1.431860e+000
1.309941015959893e-005	3.995959e+000	-1.000000e-001	-3.099410e-002	1.406807e+000
1.329823047879679e-005	3.995959e+000	-1.000000e-001	-3.298230e-002	1.357253e+000
1.369587111719251e-005	3.995959e+000	-1.000000e-001	-3.695871e-002	1.259910e+000
1.400000000000000e-005	3.995959e+000	-1.000000e-001	-4.000000e-002	1.186694e+000
1.407952812767914e-005	3.995959e+000	-1.000000e-001	-4.079528e-002	1.168041e+000
1.423858438303743e-005	3.995959e+000	-1.000000e-001	-4.238584e-002	1.131040e+000
1.455669689375401e-005	3.995959e+000	-1.000000e-001	-4.556697e-002	1.058257e+000
1.500000000000000e-005	3.995959e+000	-1.000000e-001	-5.000000e-002	9.584115e-001
1.506362250214332e-005	3.995959e+000	-1.000000e-001	-5.063622e-002	9.444568e-001
1.519086750642995e-005	3.995959e+000	-1.000000e-001	-5.190868e-002	9.167236e-001
1.544535751500321e-005	3.995959e+000	-1.000000e-001	-5.445357e-002	8.620899e-001
1.595433753214973e-005	3.995959e+000	-1.000000e-001	-5.954337e-002	7.544605e-001
1.600000000000000e-005	3.995959e+000	-1.000000e-001	-6.000000e-002	7.449287e-001
1.609132493570055e-005	3.995959e+000	-1.000000e-001	-6.091325e-002	7.261853e-001
1.627397480710165e-005	3.995959e+000	-1.000000e-001	-6.273974e-002	6.890007e-001
1.663927454990384e-005	3.995959e+000	-1.000000e-001	-6.639274e-002	6.156734e-001
1.700000000000000e-005	3.995959e+000	-1.000000e-001	-7.000000e-002	5.442078e-001
1.707305994856044e-005	3.995959e+000	-1.000000e-001	-7.073060e-002	5.300305e-001
1.721917984568132e-005	3.995959e+000	-1.000000e-001	-7.219180e-002	5.018409e-001
1.751141963992307e-005	3.995959e+000	-1.000000e-001	-7.511420e-002	4.461716e-001
1.800000000000000e-005	3.995959e+000	-1.000000e-001	-8.000000e-002	3.542063e-001
1.805844795884835e-005	3.995959e+000	-1.000000e-001	-8.058448e-002	3.434218e-001
1.817534387654506e-005	3.995959e+000	-1.000000e-001	-8.175344e-002	3.219428e-001
1.840913571193846e-005	3.995958e+000	-1.000000e-001	-8.409136e-002	2.794107e-001
1.887671938272527e-005	3.995953e+000	-1.000000e-001	-8.876719e-002	1.952628e-001
1.900000000000000e-005	3.995949e+000	-1.000000e-001	-9.000000e-002	1.732834e-001
1.909351673415736e-005	3.995918e+000	-1.000000e-001	-9.093517e-002	1.568312e-001
1.928055020247209e-005	3.995049e+000	-1.000000e-001	-9.280550e-002	1.241182e-001
1.965461713910154e-005	3.973235e+000	-1.000000e-001	-9.654617e-002	5.933703e-002
2.000000000000000e-005	3.918243e+000	-1.000000e-001	-1.000000e-001	6.888722e-005
2.003453828608984e-005	3.899067e+000	-1.000000e-001	-1.000000e-001	-5.776808e-003
2.010361485826954e-005	3.841949e+000	-1.000000e-001	-1.000000e-001	-1.739900e-002
2.024176800262892e-005	3.659483e+000	-1.000000e-001	-1.000000e-001	-4.034059e-002
2.039497272659254e-005	3.370516e+000	-1.000000e-001	-1.000000e-001	-6.523893e-002
2.057286089956274e-005	2.950934e+000	-1.000000e-001	-1.000000e-001	-9.324402e-002
2.083151481988765e-005	2.275484e+000	-1.000000e-001	-1.000000e-001	-1.325891e-001
2.100000000000000e-005	1.819538e+000	-1.000000e-001	-1.000000e-001	-1.575155e-001
2.102727489974591e-005	1.744614e+000	-1.000000e-001	-1.000000e-001	-1.614144e-001
2.108182469923772e-005	1.594778e+000	-1.000000e-001	-1.000000e-001	-1.691546e-001
2.119092429822134e-005	1.295005e+000	-1.000000e-001	-1.000000e-001	-1.843567e-001
2.140912349618857e-005	6.950890e-001	-1.000000e-001	-1.000000e-001	-2.136658e-001
2.184552189212305e-005	-5.051714e-001	-1.000000e-001	-1.000000e-001	-2.698899e-001
2.200000000000000e-005	-9.300941e-001	-1.000000e-001	-1.000000e-001	-2.890652e-001
2.208727967918689e-005	-1.170175e+000	-1.000000e-001	-1.000000e-001	-2.993147e-001
2.226183903756068e-005	-1.650337e+000	-1.000000e-001	-1.000000e-001	-3.193437e-001
2.261095775430826e-005	-2.600897e+000	-1.000000e-001	-1.000000e-001	-3.577117e-001
2.300000000000000e-005	-3.639513e+000	-1.000000e-001	-1.000000e-001	-3.987391e-001
2.301886212188369e-005	-3.681557e+000	-1.000000e-001	-1.000000e-001	-4.006198e-001
2.305658636565108e-005	-3.749675e+000	-1.000000e-001	-1.000000e-001	-4.043623e-001
2.313203485318586e-005	-3.843075e+000	-1.000000e-001	-1.000000e-001	-4.117802e-001
2.320857366985835e-005	-3.902712e+000	-1.000000e-001	-1.000000e-001	-4.192093e-001
2.330752242988183e-005	-3.946135e+000	-1.000000e-001	-1.000000e-001	-4.286489e-001
2.344553841638573e-005	-3.975541e+000	-1.000000e-001	-1.000000e-001	-4.415323e-001
2.362329827459078e-005	-3.990110e+000	-1.000000e-001	-1.000000e-001	-4.576828e-001
2.382086153961551e-005	-3.994841e+000	-1.000000e-001	-1.000000e-001	-4.750915e-001
2.400000000000000e-005	-3.996114e+000	-1.000000e-001	-1.000000e-001	-4.904922e-001
2.403810743878923e-005	-3.995991e+000	-1.000000e-001	-1.000000e-001	-4.936599e-001
2.411432231636768e-005	-3.995914e+000	-1.000000e-001	-1.000000e-001	-4.999325e-001
2.426675207152459e-005	-3.995934e+000	-1.000000e-001	-1.000000e-001	-5.121781e-001
2.457161158183840e-005	-3.995956e+000	-1.000000e-001	-1.000000e-001	-5.356767e-001
2.500000000000000e-005	-3.995981e+000	-1.000000e-001	-1.000000e-001	-5.674437e-001
2.506097190206276e-005	-3.995968e+000	-1.000000e-001	-1.000000e-001	-5.716788e-001
2.518291570618829e-005	-3.995959e+000	-1.000000e-001	-1.000000e-001	-5.800182e-001
2.542680331443934e-005	-3.995959e+000	-1.000000e-001	-1.000000e-001	-5.960815e-001
2.591457853094145e-005	-3.995958e+000	-1.000000e-001	-1.000000e-001	-6.269447e-001
2.600000000000000e-005	-3.995960e+000	-1.000000e-001	-1.000000e-001	-6.321622e-001
2.609755504330042e-005	-3.995959e+000	-1.000000e-001	-1.000000e-001	-6.378271e-001
2.629266512990127e-005	-3.995959e+000	-1.000000e-001	-1.000000e-001	-6.488866e-001
2.668288530310295e-005	-3.995959e+000	-1.000000e-001	-1.000000e-001	-6.701347e-001
2.700000000000000e-005	-3.995959e+000	-1.000000e-001	-1.000000e-001	-6.867580e-001
2.707804403464034e-005	-3.995959e+000	-1.000000e-001	-1.000000e-001	-6.906087e-001
2.723413210392101e-005	-3.995959e+000	-1.000000e-001	-1.000000e-001	-6.981653e-001
2.754630824248236e-005	-3.995959e+000	-1.000000e-001	-1.000000e-001	-7.126963e-001
2.800000000000000e-005	-3.995959e+000	-1.000000e-001	-1.000000e-001	-7.330316e-001
2.806243522771227e-005	-3.995959e+000	-1.000000e-001	-1.000000e-001	-7.356567e-001
2.818730568313681e-005	-3.995959e+000	-1.000000e-001	-1.000000e-001	-7.408293e-001
2.843704659398588e-005	-3.995959e+000	-1.000000e-001	-1.000000e-001	-7.508094e-001
2.893652841568404e-005	-3.995959e+000	-1.000000e-001	-1.000000e-001	-7.700386e-001
2.900000000000000e-005	-3.995959e+000	-1.000000e-001	-1.000000e-001	-7.724037e-001
2.909989636433963e-005	-3.995959e+000	-1.000000e-001	-1.000000e-001	-7.759582e-001
2.929968909301889e-005	-3.995959e+000	-1.000000e-001	-1.000000e-001	-7.829063e-001
2.969927455037742e-005	-3.995959e+000	-1.000000e-001	-1.000000e-001	-7.962956e-001
3.000000000000000e-005	-3.995959e+000	-1.000000e-001	-1.000000e-001	-8.060256e-001
3.007991709147170e-005	-3.995959e+000	-1.000000e-001	-1.000000e-001	-8.084724e-001
3.023975127441512e-005	-3.995959e+000	-1.000000e-001	-1.000000e-001	-8.132794e-001
3.055941964030194e-005	-3.995959e+000	-1.000000e-001	-1.000000e-001	-8.225526e-001
3.100000000000000e-005	-3.995959e+000	-1.000000e-001	-1.000000e-001	-8.348994e-001
3.106393367317736e-005	-3.995959e+000	-1.000000e-001	-1.000000e-001	-8.365902e-001
3.119180101953209e-005	-3.995959e+000	-1.000000e-001	-1.000000e-001	-8.399251e-001
3.144753571224155e-005	-3.995959e+000	-1.000000e-001	-1.000000e-001	-8.463750e-001
3.195900509766046e-005	-3.995959e+000	-1.000000e-001	-1.000000e-001	-8.588457e-001
3.200000000000000e-005	-3.995959e+000	-1.000000e-001	-1.000000e-001	-8.598163e-001
3.208198980467908e-005	-3.995959e+000	-1.000000e-001	-1.000000e-001	-8.616863e-001
3.224596941403725e-005	-3.995959e+000	-1.000000e-001	-1.000000e-001	-8.653632e-001
3.257392863275359e-005	-3.995959e+000	-1.000000e-001	-1.000000e-001	-8.724740e-001
3.300000000000000e-005	-3.995959e+000	-1.000000e-001	-1.000000e-001	-8.814206e-001
3.306559184374327e-005	-3.995959e+000	-1.000000e-001	-1.000000e-001	-8.827264e-001
3.319677553122980e-005	-3.995959e+000	-1.000000e-001	-1.000000e-001	-8.853037e-001
3.345914290620288e-005	-3.995959e+000	-1.000000e-001	-1.000000e-001	-8.902970e-001
3.398387765614901e-005	-3.995959e+000	-1.000000e-001	-1.000000e-001	-8.999765e-001
3.400000000000000e-005	-3.995959e+000	-1.000000e-001	-1.000000e-001	-9.002660e-001
3.403224468770197e-005	-3.995959e+000	-1.000000e-001	-1.000000e-001	-9.008309e-001
3.409673406310592e-005	-3.995959e+000	-1.000000e-001	-1.000000e-001	-9.019536e-001
3.422571281391382e-005	-3.995959e+000	-1.000000e-001	-1.000000e-001	-9.041651e-001
3.448367031552961e-005	-3.995959e+000	-1.000000e-001	-1.000000e-001	-9.084546e-001
3.499958531876119e-005	-3.995959e+000	-1.000000e-001	-1.000000e-001	-9.167894e-001
3.500000000000000e-005	-3.995959e+000	-1.000000e-001	-1.000000e-001	-9.167959e-001
3.500082936247764e-005	-3.995959e+000	-1.000000e-001	-1.000000e-001	-9.168088e-001
3.500248808743291e-005	-3.995959e+000	-1.000000e-001	-1.000000e-001	-9.168345e-001
3.500580553734344e-005	-3.995959e+000	-1.000000e-001	-1.000000e-001	-9.168859e-001
3.501244043716451e-005	-3.995959e+000	-1.000000e-001	-1.000000e-001	-9.169885e-001
3.502571023680665e-005	-3.995959e+000	-1.000000e-001	-1.000000e-001	-9.171935e-001
3.505224983609094e-005	-3.995959e+000	-1.000000e-001	-1.000000e-001	-9.176023e-001
3.510532903465951e-005	-3.995959e+000	-1.000000e-001	-1.000000e-001	-9.184147e-001
3.521148743179665e-005	-3.995959e+000	-1.000000e-001	-1.000000e-001	-9.200197e-001
3.542380422607092e-005	-3.995959e+000	-1.000000e-001	-1.000000e-001	-9.231529e-001
3.584843781461947e-005	-3.995959e+000	-1.000000e-001	-1.000000e-001	-9.292505e-001
3.600000000000000e-005	-3.995959e+000	-1.000000e-001	-1.000000e-001	-9.313751e-001
3.608492671770971e-005	-3.995959e+000	-1.000000e-001	-1.000000e-001	-9.325238e-001
3.625478015312913e-005	-3.995959e+000	-1.000000e-001	-1.000000e-001	-9.347876e-001
3.659448702396797e-005	-3.995959e+000	-1.000000e-001	-1.000000e-001	-9.391894e-001
3.700000000000000e-005	-3.995959e+000	-1.000000e-001	-1.000000e-001	-9.443058e-001
3.706794137416777e-005	-3.995959e+000	-1.000000e-001	-1.000000e-001	-9.451264e-001
3.720382412250330e-005	-3.995959e+000	-1.000000e-001	-1.000000e-001	-9.467489e-001
3.747558961917438e-005	-3.995959e+000	-1.000000e-001	-1.000000e-001	-9.499081e-001
3.800000000000000e-005	-3.995959e+000	-1.000000e-001	-1.000000e-001	-9.558495e-001
3.805435309933421e-005	-3.995959e+000	-1.000000e-001	-1.000000e-001	-9.564385e-001
3.816305929800265e-005	-3.995959e+000	-1.000000e-001	-1.000000e-001	-9.576064e-001
3.838047169533950e-005	-3.995959e+000	-1.000000e-001	-1.000000e-001	-9.598941e-001
3.881529649001322e-005	-3.995959e+000	-1.000000e-001	-1.000000e-001	-9.643573e-001
3.900000000000000e-005	-3.995959e+000	-1.000000e-001	-1.000000e-001	-9.662121e-001
3.908696495893474e-005	-3.995959e+000	-1.000000e-001	-1.000000e-001	-9.670573e-001
3.926089487680423e-005	-3.995959e+000	-1.000000e-001	-1.000000e-001	-9.687258e-001
3.960875471254320e-005	-3.995959e+000	-1.000000e-001	-1.000000e-001	-9.719839e-001
4.000000000000000e-005	-3.995959e+000	-1.000000e-001	-1.000000e-001	-9.755662e-001
4.006957196714780e-005	-3.995959e+000	-1.000000e-001	-1.000000e-001	-9.761802e-001
4.020871590144338e-005	-3.995959e+000	-1.000000e-001	-1.000000e-001	-9.773960e-001
4.048700377003456e-005	-3.995959e+000	-1.000000e-001	-1.000000e-001	-9.797731e-001
4.100000000000000e-005	-3.995959e+000	-1.000000e-001	-1.000000e-001	-9.840607e-001
4.105565757371823e-005	-3.995959e+000	-1.000000e-001	-1.000000e-001	-9.845089e-001
4.116697272115471e-005	-3.995959e+000	-1.000000e-001	-1.000000e-001	-9.853985e-001
4.138960301602765e-005	-3.995959e+000	-1.000000e-001	-1.000000e-001	-9.871458e-001
4.183486360577354e-005	-3.995959e+000	-1.000000e-001	-1.000000e-001	-9.905682e-001
4.200000000000000e-005	-3.995959e+000	-1.000000e-001	-1.000000e-001	-9.918144e-001
4.208905211794918e-005	-3.995959e+000	-1.000000e-001	-1.000000e-001	-9.924684e-001
4.226715635384753e-005	-3.995959e+000	-1.000000e-001	-1.000000e-001	-9.937618e-001
4.262336482564425e-005	-3.995959e+000	-1.000000e-001	-1.000000e-001	-9.962969e-001
4.300000000000000e-005	-3.995959e+000	-1.000000e-001	-1.000000e-001	-9.989270e-001
4.307124169435935e-005	-3.995959e+000	-1.000000e-001	-1.000000e-001	-9.994094e-001
4.321372508307803e-005	-3.995959e+000	-1.000000e-001	-1.000000e-001	-1.000366e+000
4.349869186051539e-005	-3.995959e+000	-1.000000e-001	-1.000000e-001	-1.002243e+000
4.385602159472748e-005	-3.995959e+000	-1.000000e-001	-1.000000e-001	-1.004552e+000
4.421335132893957e-005	-3.995959e+000	-1.000000e-001	-1.000000e-001	-1.006804e+000
4.457068106315165e-005	-3.995959e+000	-1.000000e-001	-1.000000e-001	-1.008999e+000
4.492801079736374e-005	-3.995959e+000	-1.000000e-001	-1.000000e-001	-1.011137e+000
4.528534053157583e-005	-3.995959e+000	-1.000000e-001	-1.000000e-001	-1.013217e+000
4.564267026578791e-005	-3.995959e+000	-1.000000e-001	-1.000000e-001	-1.015241e+000
4.600000000000000e-005	-3.995959e+000	-1.000000e-001	-1.000000e-001	-1.017208e+000
4.607295149502397e-005	-3.995959e+000	-1.000000e-001	-1.000000e-001	-1.017603e+000
4.651066046516777e-005	-3.995959e+000	-1.000000e-001	-1.000000e-001	-1.019933e+000
4.700000000000000e-005	-3.995959e+000	-1.000000e-001	-1.000000e-001	-1.022483e+000
4.705836119601918e-005	-3.995959e+000	-1.000000e-001	-1.000000e-001	-1.022780e+000
4.717508358805752e-005	-3.995959e+000	-1.000000e-001	-1.000000e-001	-1.023369e+000
4.740852837213421e-005	-3.995959e+000	-1.000000e-001	-1.000000e-001	-1.024532e+000
