time	V(vout)	V(n001)	V(n012)	V(n013)
0.000000000000000e+000	3.995959e+000	1.000000e-001	1.000000e-001	3.681750e+000
4.464285766455794e-010	3.995959e+000	9.999107e-002	9.999554e-002	3.681750e+000
8.928571532911587e-010	3.995959e+000	9.998214e-002	9.999107e-002	3.681750e+000
1.339285729936738e-009	3.995959e+000	9.997321e-002	9.998661e-002	3.681750e+000
1.785714306582317e-009	3.995959e+000	9.996428e-002	9.998215e-002	3.681750e+000
2.232142883227897e-009	3.995959e+000	9.995535e-002	9.997768e-002	3.681750e+000
2.678571459873476e-009	3.995959e+000	9.994643e-002	9.997321e-002	3.681750e+000
3.125000036519054e-009	3.995959e+000	9.993750e-002	9.996875e-002	3.681750e+000
6.250000073038109e-009	3.995959e+000	9.987500e-002	9.993750e-002	3.681750e+000
1.250000014607622e-008	3.995959e+000	9.975000e-002	9.987500e-002	3.681754e+000
2.500000029215244e-008	3.995959e+000	9.950000e-002	9.975000e-002	3.681783e+000
5.000000058430487e-008	3.995959e+000	9.900000e-002	9.950000e-002	3.681935e+000
1.000000011686097e-007	3.995959e+000	9.800000e-002	9.900000e-002	3.682519e+000
1.638964913152332e-007	3.995959e+000	9.672207e-002	9.836104e-002	3.683814e+000
2.557160279754592e-007	3.995959e+000	9.488568e-002	9.744284e-002	3.687018e+000
4.074646435054197e-007	3.995959e+000	9.185071e-002	9.592535e-002	3.695424e+000
5.663998508873409e-007	3.995959e+000	8.867200e-002	9.433600e-002	3.709416e+000
8.842702656511832e-007	3.995959e+000	8.231460e-002	9.115729e-002	3.747951e+000
1.000000000000000e-006	3.995959e+000	8.000000e-002	9.000000e-002	3.764825e+000
1.023806862684640e-006	3.995959e+000	7.952386e-002	8.976193e-002	3.768609e+000
1.071420588053920e-006	3.995959e+000	7.857159e-002	8.928579e-002	3.775617e+000
1.166648038792479e-006	3.995959e+000	7.666704e-002	8.833352e-002	3.786740e+000
1.357102940269599e-006	3.995959e+000	7.285794e-002	8.642897e-002	3.799357e+000
1.738012743223837e-006	3.995959e+000	6.523974e-002	8.261988e-002	3.806855e+000
2.000000000000000e-006	3.995959e+000	6.000000e-002	8.000000e-002	3.805112e+000
2.061602562269307e-006	3.995959e+000	5.876795e-002	7.938398e-002	3.803975e+000
2.184807686807921e-006	3.995959e+000	5.630385e-002	7.815193e-002	3.801653e+000
2.431217935885150e-006	3.995959e+000	5.137564e-002	7.568782e-002	3.796524e+000
2.924038434039607e-006	3.995959e+000	4.151923e-002	7.075962e-002	3.784983e+000
3.000000000000000e-006	3.995959e+000	4.000000e-002	7.000000e-002	3.782992e+000
3.098564099630891e-006	3.995959e+000	3.802872e-002	6.901436e-002	3.779738e+000
3.295692298892674e-006	3.995959e+000	3.408615e-002	6.704307e-002	3.771503e+000
3.689948697416240e-006	3.995959e+000	2.620103e-002	6.310051e-002	3.748569e+000
4.000000000000000e-006	3.995959e+000	2.000000e-002	6.000000e-002	3.725337e+000
4.078851279704713e-006	3.995959e+000	1.842297e-002	5.921149e-002	3.717238e+000
4.236553839114140e-006	3.995959e+000	1.526892e-002	5.763446e-002	3.699715e+000
4.551958957932992e-006	3.995959e+000	8.960821e-003	5.448041e-002	3.659452e+000
5.000000000000000e-006	3.995959e+000	0.000000e+000	5.000000e-002	3.595459e+000
5.063081023763770e-006	3.995959e+000	-1.261620e-003	4.936919e-002	3.584938e+000
5.189243071291311e-006	3.995959e+000	-3.784861e-003	4.810757e-002	3.563229e+000
5.441567166346394e-006	3.995959e+000	-8.831344e-003	4.558433e-002	3.516713e+000
5.946215356456559e-006	3.995959e+000	-1.892431e-002	4.053785e-002	3.417583e+000
5.999999999999999e-006	3.995959e+000	-2.000000e-002	4.000000e-002	3.406475e+000
6.099999999999999e-006	3.995959e+000	-2.200000e-002	3.900000e-002	3.384490e+000
6.299999999999999e-006	3.995959e+000	-2.600000e-002	3.700000e-002	3.339256e+000
6.699999999999999e-006	3.995959e+000	-3.400000e-002	3.300000e-002	3.244853e+000
7.000000000000000e-006	3.995959e+000	-4.000000e-002	3.000000e-002	3.171390e+000
7.080000000000000e-006	3.995959e+000	-4.160000e-002	2.920000e-002	3.150753e+000
7.240000000000000e-006	3.995959e+000	-4.480000e-002	2.760000e-002	3.108843e+000
7.560000000000001e-006	3.995959e+000	-5.120000e-002	2.440000e-002	3.022554e+000
8.000000000000000e-006	3.995959e+000	-6.000000e-002	2.000000e-002	2.900795e+000
8.063999999999999e-006	3.995959e+000	-6.128000e-002	1.936000e-002	2.882374e+000
8.191999999999999e-006	3.995959e+000	-6.384000e-002	1.808000e-002	2.845212e+000
8.447999999999999e-006	3.995959e+000	-6.896000e-002	1.552000e-002	2.769409e+000
8.959999999999999e-006	3.995959e+000	-7.920000e-002	1.040000e-002	2.614936e+000
9.000000000000000e-006	3.995959e+000	-8.000000e-002	1.000000e-002	2.602681e+000
9.080000000000003e-006	3.995959e+000	-8.160000e-002	9.200000e-003	2.577729e+000
9.240000000000008e-006	3.995959e+000	-8.480000e-002	7.600000e-003	2.527444e+000
9.560000000000019e-006	3.995959e+000	-9.120000e-002	4.400000e-003	2.425406e+000
9.999999999999999e-006	3.995959e+000	-1.000000e-001	0.000000e+000	2.283251e+000
1.003946313689045e-005	3.995959e+000	-1.000000e-001	-3.946314e-004	2.270286e+000
1.011838941067134e-005	3.995959e+000	-1.000000e-001	-1.183894e-003	2.244407e+000
1.026911870299512e-005	3.995959e+000	-1.000000e-001	-2.691187e-003	2.195260e+000
1.042072791683462e-005	3.995959e+000	-1.000000e-001	-4.207279e-003	2.146309e+000
1.055859084673411e-005	3.995959e+000	-1.000000e-001	-5.585908e-003	2.102502e+000
1.083431670653307e-005	3.995959e+000	-1.000000e-001	-8.343167e-003	2.016373e+000
1.100000000000000e-005	3.995959e+000	-1.000000e-001	-1.000000e-002	1.965317e+000
1.103528590139019e-005	3.995959e+000	-1.000000e-001	-1.035286e-002	1.954642e+000
1.110585770417057e-005	3.995959e+000	-1.000000e-001	-1.105858e-002	1.933390e+000
1.124700130973132e-005	3.995959e+000	-1.000000e-001	-1.247001e-002	1.891362e+000
1.152928852085284e-005	3.995959e+000	-1.000000e-001	-1.529288e-002	1.809037e+000
1.200000000000000e-005	3.995959e+000	-1.000000e-001	-2.000000e-002	1.674389e+000
1.205645744222430e-005	3.995959e+000	-1.000000e-001	-2.056457e-002	1.658760e+000
1.216937232667291e-005	3.995959e+000	-1.000000e-001	-2.169372e-002	1.627717e+000
1.239520209557012e-005	3.995959e+000	-1.000000e-001	-2.395202e-002	1.566661e+000
1.284686163336454e-005	3.995959e+000	-1.000000e-001	-2.846862e-002	1.446856e+000
1.300000000000000e-005	3.995959e+000	-1.000000e-001	-3.000000e-002	1.406909e+000
1.309033190755889e-005	3.995959e+000	-1.000000e-001	-3.090332e-002	1.383916e+000
1.327099572267665e-005	3.995959e+000	-1.000000e-001	-3.270996e-002	1.338396e+000
1.363232335291219e-005	3.995959e+000	-1.000000e-001	-3.632323e-002	1.248988e+000
1.400000000000000e-005	3.995959e+000	-1.000000e-001	-4.000000e-002	1.159541e+000
1.407226552604711e-005	3.995959e+000	-1.000000e-001	-4.072266e-002	1.142433e+000
1.421679657814132e-005	3.995959e+000	-1.000000e-001	-4.216797e-002	1.108472e+000
1.450585868232975e-005	3.995959e+000	-1.000000e-001	-4.505859e-002	1.041685e+000
1.500000000000000e-005	3.995959e+000	-1.000000e-001	-5.000000e-002	9.293305e-001
1.505781242083769e-005	3.995959e+000	-1.000000e-001	-5.057812e-002	9.165449e-001
1.517343726251306e-005	3.995959e+000	-1.000000e-001	-5.173437e-002	8.911221e-001
1.540468694586380e-005	3.995959e+000	-1.000000e-001	-5.404687e-002	8.409792e-001
1.586718631256529e-005	3.995959e+000	-1.000000e-001	-5.867186e-002	7.422225e-001
1.600000000000000e-005	3.995959e+000	-1.000000e-001	-6.000000e-002	7.142392e-001
1.609249987334030e-005	3.995959e+000	-1.000000e-001	-6.092500e-002	6.951203e-001
1.627749962002089e-005	3.995959e+000	-1.000000e-001	-6.277499e-002	6.571977e-001
1.664749911338208e-005	3.995959e+000	-1.000000e-001	-6.647499e-002	5.824261e-001
1.700000000000000e-005	3.995959e+000	-1.000000e-001	-7.000000e-002	5.121283e-001
1.707399989867224e-005	3.995959e+000	-1.000000e-001	-7.074000e-002	4.976759e-001
1.722199969601671e-005	3.995959e+000	-1.000000e-001	-7.222000e-002	4.689434e-001
1.751799929070566e-005	3.995959e+000	-1.000000e-001	-7.517999e-002	4.122118e-001
1.800000000000000e-005	3.995959e+000	-1.000000e-001	-8.000000e-002	3.209423e-001
1.805919991893779e-005	3.995959e+000	-1.000000e-001	-8.059200e-002	3.099561e-001
1.817759975681337e-005	3.995959e+000	-1.000000e-001	-8.177600e-002	2.880779e-001
1.841439943256453e-005	3.995954e+000	-1.000000e-001	-8.414400e-002	2.447678e-001
1.888799878406685e-005	3.995920e+000	-1.000000e-001	-8.887999e-002	1.590947e-001
1.900000000000000e-005	3.995896e+000	-1.000000e-001	-9.000000e-002	1.390252e-001
1.909471987030047e-005	3.995702e+000	-1.000000e-001	-9.094720e-002	1.222790e-001
1.928415961090139e-005	3.991673e+000	-1.000000e-001	-9.284160e-002	8.897322e-002
1.962112051879814e-005	3.961550e+000	-1.000000e-001	-9.621120e-002	3.020879e-002
1.980020123921023e-005	3.890524e+000	-1.000000e-001	-9.800201e-002	-7.317449e-004
2.000000000000000e-005	3.727225e+000	-1.000000e-001	-1.000000e-001	-3.500082e-002
2.001997987607898e-005	3.694581e+000	-1.000000e-001	-1.000000e-001	-3.840309e-002
2.005993962823693e-005	3.624102e+000	-1.000000e-001	-1.000000e-001	-4.518910e-002
2.013985913255283e-005	3.464481e+000	-1.000000e-001	-1.000000e-001	-5.866203e-002
2.025738237891206e-005	3.198886e+000	-1.000000e-001	-1.000000e-001	-7.821596e-002
2.038733736745242e-005	2.874191e+000	-1.000000e-001	-1.000000e-001	-9.932420e-002
2.064115642121288e-005	2.199816e+000	-1.000000e-001	-1.000000e-001	-1.391153e-001
2.094293341318598e-005	1.378067e+000	-1.000000e-001	-1.000000e-001	-1.848522e-001
2.100000000000000e-005	1.221378e+000	-1.000000e-001	-1.000000e-001	-1.932595e-001
2.103862619686831e-005	1.115132e+000	-1.000000e-001	-1.000000e-001	-1.987883e-001
2.111587859060493e-005	9.026464e-001	-1.000000e-001	-1.000000e-001	-2.097299e-001
2.127038337807817e-005	4.776695e-001	-1.000000e-001	-1.000000e-001	-2.310599e-001
2.157939295302464e-005	-3.723109e-001	-1.000000e-001	-1.000000e-001	-2.719134e-001
2.200000000000000e-005	-1.529273e+000	-1.000000e-001	-1.000000e-001	-3.253152e-001
2.206180191498930e-005	-1.699273e+000	-1.000000e-001	-1.000000e-001	-3.326436e-001
2.218540574496789e-005	-2.039272e+000	-1.000000e-001	-1.000000e-001	-3.470593e-001
2.243261340492506e-005	-2.719268e+000	-1.000000e-001	-1.000000e-001	-3.750537e-001
2.267757633611027e-005	-3.370363e+000	-1.000000e-001	-1.000000e-001	-4.018462e-001
2.283187582099325e-005	-3.701246e+000	-1.000000e-001	-1.000000e-001	-4.181308e-001
2.297306254643756e-005	-3.895022e+000	-1.000000e-001	-1.000000e-001	-4.326521e-001
2.300000000000000e-005	-3.915141e+000	-1.000000e-001	-1.000000e-001	-4.353826e-001
2.301470004730100e-005	-3.922375e+000	-1.000000e-001	-1.000000e-001	-4.368544e-001
2.304410014190299e-005	-3.935133e+000	-1.000000e-001	-1.000000e-001	-4.397864e-001
2.310290033110699e-005	-3.953643e+000	-1.000000e-001	-1.000000e-001	-4.455943e-001
2.322050070951497e-005	-3.974725e+000	-1.000000e-001	-1.000000e-001	-4.570035e-001
2.341891019016407e-005	-3.990079e+000	-1.000000e-001	-1.000000e-001	-4.757523e-001
2.363795356678892e-005	-3.994927e+000	-1.000000e-001	-1.000000e-001	-4.956594e-001
2.398746185341677e-005	-3.996048e+000	-1.000000e-001	-1.000000e-001	-5.263364e-001
2.400000000000000e-005	-3.996013e+000	-1.000000e-001	-1.000000e-001	-5.274086e-001
2.402507629316645e-005	-3.995997e+000	-1.000000e-001	-1.000000e-001	-5.295045e-001
2.407522887949936e-005	-3.995982e+000	-1.000000e-001	-1.000000e-001	-5.336688e-001
2.417553405216517e-005	-3.995972e+000	-1.000000e-001	-1.000000e-001	-5.418644e-001
2.437614439749680e-005	-3.995963e+000	-1.000000e-001	-1.000000e-001	-5.577307e-001
2.477736508816005e-005	-3.995959e+000	-1.000000e-001	-1.000000e-001	-5.882093e-001
2.500000000000000e-005	-3.995957e+000	-1.000000e-001	-1.000000e-001	-6.045173e-001
2.508024413813265e-005	-3.995958e+000	-1.000000e-001	-1.000000e-001	-6.100748e-001
2.524073241439795e-005	-3.995959e+000	-1.000000e-001	-1.000000e-001	-6.209644e-001
2.556170896692856e-005	-3.995959e+000	-1.000000e-001	-1.000000e-001	-6.418623e-001
2.600000000000000e-005	-3.995959e+000	-1.000000e-001	-1.000000e-001	-6.692872e-001
2.606419531050612e-005	-3.995959e+000	-1.000000e-001	-1.000000e-001	-6.730440e-001
2.619258593151836e-005	-3.995959e+000	-1.000000e-001	-1.000000e-001	-6.804372e-001
2.644936717354285e-005	-3.995959e+000	-1.000000e-001	-1.000000e-001	-6.946574e-001
2.696292965759181e-005	-3.995959e+000	-1.000000e-001	-1.000000e-001	-7.219965e-001
2.700000000000000e-005	-3.995959e+000	-1.000000e-001	-1.000000e-001	-7.239032e-001
2.707414068481639e-005	-3.995959e+000	-1.000000e-001	-1.000000e-001	-7.275601e-001
2.722242205444917e-005	-3.995959e+000	-1.000000e-001	-1.000000e-001	-7.347418e-001
2.751898479371473e-005	-3.995959e+000	-1.000000e-001	-1.000000e-001	-7.485465e-001
2.800000000000000e-005	-3.995959e+000	-1.000000e-001	-1.000000e-001	-7.700959e-001
2.805931254785311e-005	-3.995959e+000	-1.000000e-001	-1.000000e-001	-7.725842e-001
2.817793764355933e-005	-3.995959e+000	-1.000000e-001	-1.000000e-001	-7.774900e-001
2.841518783497178e-005	-3.995959e+000	-1.000000e-001	-1.000000e-001	-7.869681e-001
2.888968821779667e-005	-3.995959e+000	-1.000000e-001	-1.000000e-001	-8.052194e-001
2.900000000000000e-005	-3.995959e+000	-1.000000e-001	-1.000000e-001	-8.093230e-001
2.909490007656498e-005	-3.995959e+000	-1.000000e-001	-1.000000e-001	-8.126863e-001
2.928470022969494e-005	-3.995959e+000	-1.000000e-001	-1.000000e-001	-8.192661e-001
2.966430053595485e-005	-3.995959e+000	-1.000000e-001	-1.000000e-001	-8.319383e-001
3.000000000000000e-005	-3.995959e+000	-1.000000e-001	-1.000000e-001	-8.427517e-001
3.007592006125198e-005	-3.995959e+000	-1.000000e-001	-1.000000e-001	-8.450611e-001
3.022776018375595e-005	-3.995959e+000	-1.000000e-001	-1.000000e-001	-8.496007e-001
3.053144042876388e-005	-3.995959e+000	-1.000000e-001	-1.000000e-001	-8.583527e-001
3.100000000000000e-005	-3.995959e+000	-1.000000e-001	-1.000000e-001	-8.713883e-001
3.106073604900159e-005	-3.995959e+000	-1.000000e-001	-1.000000e-001	-8.729796e-001
3.118220814700476e-005	-3.995959e+000	-1.000000e-001	-1.000000e-001	-8.761195e-001
3.142515234301110e-005	-3.995959e+000	-1.000000e-001	-1.000000e-001	-8.821985e-001
3.191104073502379e-005	-3.995959e+000	-1.000000e-001	-1.000000e-001	-8.939422e-001
3.200000000000000e-005	-3.995959e+000	-1.000000e-001	-1.000000e-001	-8.960280e-001
3.209717767840254e-005	-3.995959e+000	-1.000000e-001	-1.000000e-001	-8.982095e-001
3.229153303520761e-005	-3.995959e+000	-1.000000e-001	-1.000000e-001	-9.024832e-001
3.268024374881777e-005	-3.995959e+000	-1.000000e-001	-1.000000e-001	-9.107424e-001
3.300000000000000e-005	-3.995959e+000	-1.000000e-001	-1.000000e-001	-9.173202e-001
3.307774214272203e-005	-3.995959e+000	-1.000000e-001	-1.000000e-001	-9.188393e-001
3.323322642816610e-005	-3.995959e+000	-1.000000e-001	-1.000000e-001	-9.218294e-001
3.354419499905422e-005	-3.995959e+000	-1.000000e-001	-1.000000e-001	-9.276145e-001
3.400000000000000e-005	-3.995959e+000	-1.000000e-001	-1.000000e-001	-9.358292e-001
3.406219371417763e-005	-3.995959e+000	-1.000000e-001	-1.000000e-001	-9.368917e-001
3.418658114253287e-005	-3.995959e+000	-1.000000e-001	-1.000000e-001	-9.389905e-001
3.443535599924337e-005	-3.995959e+000	-1.000000e-001	-1.000000e-001	-9.430648e-001
3.493290571266436e-005	-3.995959e+000	-1.000000e-001	-1.000000e-001	-9.509650e-001
3.500000000000000e-005	-3.995959e+000	-1.000000e-001	-1.000000e-001	-9.520020e-001
3.509950994268420e-005	-3.995959e+000	-1.000000e-001	-1.000000e-001	-9.534825e-001
3.529852982805260e-005	-3.995959e+000	-1.000000e-001	-1.000000e-001	-9.563884e-001
3.569656959878940e-005	-3.995959e+000	-1.000000e-001	-1.000000e-001	-9.620258e-001
3.600000000000000e-005	-3.995959e+000	-1.000000e-001	-1.000000e-001	-9.662022e-001
3.607960795414736e-005	-3.995959e+000	-1.000000e-001	-1.000000e-001	-9.672498e-001
3.623882386244208e-005	-3.995959e+000	-1.000000e-001	-1.000000e-001	-9.693148e-001
3.655725567903152e-005	-3.995959e+000	-1.000000e-001	-1.000000e-001	-9.733259e-001
3.700000000000000e-005	-3.995959e+000	-1.000000e-001	-1.000000e-001	-9.787497e-001
3.706368636331789e-005	-3.995959e+000	-1.000000e-001	-1.000000e-001	-9.794944e-001
3.719105908995366e-005	-3.995959e+000	-1.000000e-001	-1.000000e-001	-9.809673e-001
3.744580454322521e-005	-3.995959e+000	-1.000000e-001	-1.000000e-001	-9.838356e-001
3.795529544976831e-005	-3.995959e+000	-1.000000e-001	-1.000000e-001	-9.894194e-001
3.800000000000000e-005	-3.995959e+000	-1.000000e-001	-1.000000e-001	-9.898980e-001
3.808940910046339e-005	-3.995959e+000	-1.000000e-001	-1.000000e-001	-9.908263e-001
3.826822730139017e-005	-3.995959e+000	-1.000000e-001	-1.000000e-001	-9.926557e-001
3.862586370324374e-005	-3.995959e+000	-1.000000e-001	-1.000000e-001	-9.962188e-001
3.900000000000000e-005	-3.995959e+000	-1.000000e-001	-1.000000e-001	-9.998543e-001
3.907152728037071e-005	-3.995959e+000	-1.000000e-001	-1.000000e-001	-1.000522e+000
3.921458184111214e-005	-3.995959e+000	-1.000000e-001	-1.000000e-001	-1.001842e+000
3.961249872095326e-005	-3.995959e+000	-1.000000e-001	-1.000000e-001	-1.005411e+000
4.001041560079438e-005	-3.995959e+000	-1.000000e-001	-1.000000e-001	-1.008856e+000
4.040833248063551e-005	-3.995959e+000	-1.000000e-001	-1.000000e-001	-1.012176e+000
4.080624936047663e-005	-3.995959e+000	-1.000000e-001	-1.000000e-001	-1.015372e+000
4.120416624031776e-005	-3.995959e+000	-1.000000e-001	-1.000000e-001	-1.018444e+000
4.160208312015888e-005	-3.995959e+000	-1.000000e-001	-1.000000e-001	-1.021390e+000
4.200000000000000e-005	-3.995959e+000	-1.000000e-001	-1.000000e-001	-1.024213e+000
4.207324393509961e-005	-3.995959e+000	-1.000000e-001	-1.000000e-001	-1.024721e+000
4.251270754569727e-005	-3.995959e+000	-1.000000e-001	-1.000000e-001	-1.027698e+000
4.300000000000000e-005	-3.995959e+000	-1.000000e-001	-1.000000e-001	-1.030908e+000
4.305859514807969e-005	-3.995959e+000	-1.000000e-001	-1.000000e-001	-1.031281e+000
4.317578544423907e-005	-3.995959e+000	-1.000000e-001	-1.000000e-001	-1.032021e+000
4.341016603655782e-005	-3.995959e+000	-1.000000e-001	-1.000000e-001	-1.033475e+000
4.387892722119532e-005	-3.995959e+000	-1.000000e-001	-1.000000e-001	-1.036325e+000
4.400000000000000e-005	-3.995959e+000	-1.000000e-001	-1.000000e-001	-1.037049e+000
4.409375223692750e-005	-3.995959e+000	-1.000000e-001	-1.000000e-001	-1.037596e+000
4.428125671078250e-005	-3.995959e+000	-1.000000e-001	-1.000000e-001	-1.038677e+000
4.465626565849250e-005	-3.995959e+000	-1.000000e-001	-1.000000e-001	-1.040798e+000
4.500000000000000e-005	-3.995959e+000	-1.000000e-001	-1.000000e-001	-1.042707e+000
4.507500178954200e-005	-3.995959e+000	-1.000000e-001	-1.000000e-001	-1.043112e+000
4.522500536862600e-005	-3.995959e+000	-1.000000e-001	-1.000000e-001	-1.043915e+000
4.552501252679400e-005	-3.995959e+000	-1.000000e-001	-1.000000e-001	-1.045491e+000
4.600000000000000e-005	-3.995959e+000	-1.000000e-001	-1.000000e-001	-1.047944e+000
4.606000143163360e-005	-3.995959e+000	-1.000000e-001	-1.000000e-001	-1.048245e+000
4.618000429490080e-005	-3.995959e+000	-1.000000e-001	-1.000000e-001	-1.048843e+000
4.642001002143520e-005	-3.995959e+000	-1.000000e-001	-1.000000e-001	-1.050021e+000
4.690002147450400e-005	-3.995959e+000	-1.000000e-001	-1.000000e-001	-1.052337e+000
4.700000000000000e-005	-3.995959e+000	-1.000000e-001	-1.000000e-001	-1.052812e+000
4.709600229061376e-005	-3.995959e+000	-1.000000e-001	-1.000000e-001	-1.053259e+000
4.728800687184128e-005	-3.995959e+000	-1.000000e-001	-1.000000e-001	-1.054145e+000
4.767201603429633e-005	-3.995959e+000	-1.000000e-001	-1.000000e-001	-1.055887e+000
4.800000000000000e-005	-3.995959e+000	-1.000000e-001	-1.000000e-001	-1.057353e+000
4.807680183249101e-005	-3.995959e+000	-1.000000e-001	-1.000000e-001	-1.057688e+000
4.823040549747303e-005	-3.995959e+000	-1.000000e-001	-1.000000e-001	-1.058353e+000
4.853761282743706e-005	-3.995959e+000	-1.000000e-001	-1.000000e-001	-1.059662e+000
4.900000000000000e-005	-3.995959e+000	-1.000000e-001	-1.000000e-001	-1.061604e+000
